
T3078 000:425 SEGGER J-Link V4.78f Log File (0001ms, 0307ms total)
T3078 000:425 DLL Compiled: Nov  4 2013 18:51:32 (0002ms, 0308ms total)
T3078 000:425 Logging started @ 2018-04-01 17:50 (0002ms, 0308ms total)
T3078 000:428 JLINK_SetWarnOutHandler(...) (0000ms, 0309ms total)
T3078 000:428 JLINK_OpenEx(...)
Firmware: J-Link ARM V8 compiled Nov 28 2014 13:44:46
Hardware: V8.00
S/N: 791950130
Feature(s): RDI,FlashDL,FlashBP,JFlash,GDBFull  returns O.K. (0284ms, 0593ms total)
T3078 000:712 JLINK_SetErrorOutHandler(...) (0000ms, 0593ms total)
T3078 000:713 JLINK_ExecCommand("ProjectFile = "W:\ѧϰ\part-job\pendulum\JLinkSettings.ini"", ...)  returns 0x00 (0001ms, 0595ms total)
T3078 000:715 JLINK_ExecCommand("Device = STM32F103C8", ...)Device "STM32F103C8" selected (64 KB flash, 20 KB RAM).  returns 0x00 (0001ms, 0596ms total)
T3078 000:716 JLINK_ExecCommand("DisableConnectionTimeout", ...)  returns 0x01 (0000ms, 0596ms total)
T3078 000:716 JLINK_GetHardwareVersion()  returns 0x13880 (0000ms, 0596ms total)
T3078 000:716 JLINK_GetDLLVersion()  returns 47806 (0001ms, 0597ms total)
T3078 000:717 JLINK_GetFirmwareString(...) (0000ms, 0597ms total)
T3078 000:718 JLINK_GetDLLVersion()  returns 47806 (0000ms, 0597ms total)
T3078 000:718 JLINK_GetCompileDateTime() (0000ms, 0597ms total)
T3078 000:718 JLINK_GetFirmwareString(...) (0000ms, 0597ms total)
T3078 000:718 JLINK_GetHardwareVersion()  returns 0x13880 (0001ms, 0598ms total)
T3078 000:724 JLINK_TIF_Select(JLINKARM_TIF_JTAG)  returns 0x00 (0000ms, 0598ms total)
T3078 000:724 JLINK_SetSpeed(10000) (0005ms, 0603ms total)
T3078 000:729 JLINK_GetIdData(...) >0x2F8 JTAG>TotalIRLen = 9, IRPrint = 0x0011 >0x30 JTAG> >0x210 JTAG> >0x40 JTAG> >0x40 JTAG> >0x40 JTAG> >0x30 JTAG> >0x40 JTAG> >0x40 JTAG> >0x40 JTAG> >0x40 JTAG> >0x40 JTAG> >0x40 JTAG> >0x40 JTAG> >0x40 JTAG> >0x2F8 JTAG>TotalIRLen = 9, IRPrint = 0x0011 >0x30 JTAG> >0x210 JTAG> >0x70 JTAG> >0x40 JTAG> >0x40 JTAG> >0x40 JTAG> >0x50 JTAG> >0x80 JTAG> >0x40 JTAG> >0x30 JTAG> >0x40 JTAG> >0x40 JTAG> >0x30 JTAG> >0x40 JTAG> >0x50 JTAG>
Found Cortex-M3 r1p1, Little endian. -- CPU_WriteMem(4 bytes @ 0xE0002000) -- CPU_ReadMem(4 bytes @ 0xE000EDF0) -- CPU_ReadMem(4 bytes @ 0xE0002000)FPUnit: 6 code (BP) slots and 2 literal slots -- CPU_ReadMem(4 bytes @ 0xE000EDFC) -- CPU_ReadMem(4 bytes @ 0xE0001000) -- CPU_WriteMem(4 bytes @ 0xE0001000) -- CPU_ReadMem(4 bytes @ 0xE00FF010)TPIU fitted. -- CPU_ReadMem(4 bytes @ 0xE00FF014) -- CPU_ReadMem(4 bytes @ 0xE00FF018) ScanLen=9 NumDevices=2 aId[0]=0x3BA00477 aIrRead[0]=0 aScanLen[0]=0
 aScanRead[0]=0 (0071ms, 0674ms total)
T3078 000:800 JLINK_JTAG_GetDeviceID(DeviceIndex = 0)  returns 0x3BA00477 (0001ms, 0675ms total)
T3078 000:801 JLINK_JTAG_GetDeviceInfo(DeviceIndex = 0)  returns 0x00 (0000ms, 0675ms total)
T3078 000:801 JLINK_JTAG_GetDeviceID(DeviceIndex = 1)  returns 0x16410041 (0001ms, 0676ms total)
T3078 000:802 JLINK_JTAG_GetDeviceInfo(DeviceIndex = 1)  returns 0x00 (0000ms, 0676ms total)
T3078 000:802 JLINK_GetDeviceFamily()  returns 3 (0000ms, 0676ms total)
T3078 000:803 JLINK_ReadMem (0xE00FFFF0, 0x0010 Bytes, ...) -- CPU is running -- CPU_ReadMem(16 bytes @ 0xE00FFFF0) -- Data:  0D 00 00 00 10 00 00 00 05 00 00 00 B1 00 00 00  returns 0x00 (0001ms, 0677ms total)
T3078 000:804 JLINK_ReadMem (0xE00FFFD0, 0x0020 Bytes, ...) -- CPU is running -- CPU_ReadMem(32 bytes @ 0xE00FFFD0) -- Data:  00 00 00 00 00 00 00 00 00 00 00 00 00 00 00 00 ...  returns 0x00 (0002ms, 0679ms total)
T3078 000:806 JLINK_ReadMem (0xE00FF000, 0x0018 Bytes, ...) -- CPU is running -- CPU_ReadMem(24 bytes @ 0xE00FF000) -- Data:  03 F0 F0 FF 03 20 F0 FF 03 30 F0 FF 03 10 F0 FF ...  returns 0x00 (0002ms, 0681ms total)
T3078 000:808 JLINK_ReadMemU32(0xE000ED00, 0x0001 Items, ...) -- CPU is running -- CPU_ReadMem(4 bytes @ 0xE000ED00) -- Data:  31 C2 1F 41  returns 0x01 (0001ms, 0682ms total)
T3078 000:809 JLINK_SetResetType(JLINKARM_RESET_TYPE_NORMAL)  returns JLINKARM_RESET_TYPE_NORMAL (0000ms, 0682ms total)
T3078 000:809 JLINK_Reset() -- CPU is running -- CPU_WriteMem(4 bytes @ 0xE000EDF0) -- CPU is running -- CPU_WriteMem(4 bytes @ 0xE000EDFC) -- CPU is running -- CPU_WriteMem(4 bytes @ 0xE000ED0C) -- CPU is running -- CPU_ReadMem(4 bytes @ 0xE000EDF0) -- CPU is running -- CPU_ReadMem(4 bytes @ 0xE000EDF0) -- CPU is running -- CPU_WriteMem(4 bytes @ 0xE000EDF0) -- CPU is running -- CPU_WriteMem(4 bytes @ 0xE000EDFC) -- CPU is running -- CPU_ReadMem(4 bytes @ 0xE000EDF0) >0x80 JTAG> >0x40 JTAG> >0x30 JTAG>
 >0x40 JTAG> >0x50 JTAG> >0x40 JTAG> -- CPU_WriteMem(4 bytes @ 0xE000EDFC) -- CPU_WriteMem(4 bytes @ 0xE0001028) -- CPU_WriteMem(4 bytes @ 0xE0001038) -- CPU_WriteMem(4 bytes @ 0xE0001048) -- CPU_WriteMem(4 bytes @ 0xE0001058) -- CPU_WriteMem(4 bytes @ 0xE0002000) (0047ms, 0729ms total)
T3078 000:856 JLINK_ReadReg(R15 (PC))  returns 0x080022B2 (0001ms, 0730ms total)
T3078 000:857 JLINK_ReadReg(XPSR)  returns 0x01000000 (0001ms, 0731ms total)
T3078 000:858 JLINK_Halt()  returns 0x00 (0000ms, 0731ms total)
T3078 000:859 JLINK_IsHalted()  returns TRUE (0000ms, 0732ms total)
T3078 000:859 JLINK_ReadMemU32(0xE000EDF0, 0x0001 Items, ...) -- CPU_ReadMem(4 bytes @ 0xE000EDF0) -- Data:  03 00 03 00  returns 0x01 (0002ms, 0734ms total)
T3078 000:862 JLINK_WriteU32(0xE000EDF0, 0xA05F0003) -- CPU_WriteMem(4 bytes @ 0xE000EDF0)  returns 0x00 (0001ms, 0736ms total)
T3078 000:863 JLINK_WriteU32(0xE000EDFC, 0x01000000) -- CPU_WriteMem(4 bytes @ 0xE000EDFC)  returns 0x00 (0001ms, 0737ms total)
T3078 000:865 JLINK_GetHWStatus(...)  returns 0x00 (0002ms, 0739ms total)
T3078 000:867 JLINK_GetNumBPUnits(Type = 0xFFFFFF00)  returns 0x06 (0001ms, 0740ms total)
T3078 000:868 JLINK_GetNumBPUnits(Type = 0xF0)  returns 0x2000 (0000ms, 0740ms total)
T3078 000:868 JLINK_GetNumWPUnits()  returns 0x04 (0000ms, 0740ms total)
T3078 000:869 JLINK_GetSpeed()  returns 0x2580 (0000ms, 0740ms total)
T3078 000:869 JLINK_ReadMemU32(0xE000E004, 0x0001 Items, ...) -- CPU_ReadMem(4 bytes @ 0xE000E004) -- Data:  01 00 00 00  returns 0x01 (0002ms, 0742ms total)
T3078 000:871 JLINK_ReadMemU32(0xE000E004, 0x0001 Items, ...) -- CPU_ReadMem(4 bytes @ 0xE000E004) -- Data:  01 00 00 00  returns 0x01 (0002ms, 0744ms total)
T3078 000:873 JLINK_WriteMem(0xE0001000, 0x001C Bytes, ...) -- Data:  01 00 00 00 00 00 00 00 00 00 00 00 00 00 00 00 ... -- CPU_WriteMem(28 bytes @ 0xE0001000)  returns 0x1C (0001ms, 0745ms total)
T3078 000:874 JLINK_ReadMem (0xE0001000, 0x001C Bytes, ...) -- CPU_ReadMem(28 bytes @ 0xE0001000) -- Data:  01 00 00 40 00 00 00 00 00 00 00 00 00 00 00 00 ...  returns 0x00 (0002ms, 0747ms total)
T3078 000:876 JLINK_ReadReg(R15 (PC))  returns 0x080022B2 (0000ms, 0747ms total)
T3078 000:876 JLINK_ReadReg(XPSR)  returns 0x01000000 (0001ms, 0748ms total)
T3078 000:944 JLINK_SetResetType(JLINKARM_RESET_TYPE_NORMAL)  returns JLINKARM_RESET_TYPE_NORMAL (0001ms, 0749ms total)
T3078 000:945 JLINK_Reset() -- CPU_WriteMem(4 bytes @ 0xE000EDF0) -- CPU_WriteMem(4 bytes @ 0xE000EDFC) -- CPU_WriteMem(4 bytes @ 0xE000ED0C) -- CPU_ReadMem(4 bytes @ 0xE000EDF0) -- CPU_ReadMem(4 bytes @ 0xE000EDF0) -- CPU_WriteMem(4 bytes @ 0xE000EDF0) -- CPU_WriteMem(4 bytes @ 0xE000EDFC) -- CPU is running -- CPU_ReadMem(4 bytes @ 0xE000EDF0) >0x80 JTAG> >0x40 JTAG> >0x30 JTAG> >0x40 JTAG> >0x50 JTAG> >0x40 JTAG> -- CPU_WriteMem(4 bytes @ 0xE000EDFC) -- CPU_WriteMem(4 bytes @ 0xE0001028)
 -- CPU_WriteMem(4 bytes @ 0xE0001038) -- CPU_WriteMem(4 bytes @ 0xE0001048) -- CPU_WriteMem(4 bytes @ 0xE0001058) -- CPU_WriteMem(4 bytes @ 0xE0002000) (0047ms, 0796ms total)
T3078 000:992 JLINK_ReadReg(R15 (PC))  returns 0x080022B2 (0000ms, 0796ms total)
T3078 000:992 JLINK_ReadReg(XPSR)  returns 0x01000000 (0001ms, 0797ms total)
T3078 000:994 JLINK_ReadMem (0x080022B2, 0x0002 Bytes, ...) -- CPU_ReadMem(64 bytes @ 0x08002280) -- Updating C cache (64 bytes @ 0x08002280) -- Read from C cache (2 bytes @ 0x080022B2) -- Data:  0B 48  returns 0x00 (0002ms, 0799ms total)
T3078 000:996 JLINK_ReadMem (0x080022B4, 0x003C Bytes, ...) -- CPU_ReadMem(64 bytes @ 0x080022C0) -- Updating C cache (64 bytes @ 0x080022C0) -- Read from C cache (60 bytes @ 0x080022B4) -- Data:  80 47 0B 49 81 F3 08 88 0A 48 00 47 FE E7 FE E7 ...  returns 0x00 (0003ms, 0802ms total)
T2BEC 001:800 JLINK_SetBPEx(Addr = 0x080001CC, Type = 0xFFFFFFF2)  returns 0x00000001 (0002ms, 0805ms total)
T2BEC 001:802 JLINK_Go() -- CPU_WriteMem(4 bytes @ 0xE0002008) -- CPU_WriteMem(4 bytes @ 0xE000200C) -- CPU_WriteMem(4 bytes @ 0xE0002010) -- CPU_WriteMem(4 bytes @ 0xE0002014) -- CPU_WriteMem(4 bytes @ 0xE0002018) -- CPU_WriteMem(4 bytes @ 0xE000201C) (0012ms, 0817ms total)
T2BEC 001:914 JLINK_IsHalted()  returns TRUE (0005ms, 0822ms total)
T2BEC 001:920 JLINK_Halt()  returns 0x00 (0000ms, 0817ms total)
T2BEC 001:920 JLINK_IsHalted()  returns TRUE (0001ms, 0818ms total)
T2BEC 001:921 JLINK_IsHalted()  returns TRUE (0001ms, 0818ms total)
T2BEC 001:922 JLINK_IsHalted()  returns TRUE (0000ms, 0817ms total)
T2BEC 001:923 JLINK_ReadReg(R15 (PC))  returns 0x080001CC (0000ms, 0817ms total)
T2BEC 001:923 JLINK_ReadReg(XPSR)  returns 0x21000000 (0000ms, 0817ms total)
T2BEC 001:923 JLINK_ClrBPEx(BPHandle = 0x00000001)  returns 0x00 (0000ms, 0817ms total)
T2BEC 001:923 JLINK_ReadMemU32(0xE000ED30, 0x0001 Items, ...) -- CPU_ReadMem(4 bytes @ 0xE000ED30) -- Data:  03 00 00 00  returns 0x01 (0002ms, 0819ms total)
T2BEC 001:925 JLINK_ReadMemU32(0xE0001028, 0x0001 Items, ...) -- CPU_ReadMem(4 bytes @ 0xE0001028) -- Data:  00 00 00 00  returns 0x01 (0002ms, 0821ms total)
T2BEC 001:927 JLINK_ReadMemU32(0xE0001038, 0x0001 Items, ...) -- CPU_ReadMem(4 bytes @ 0xE0001038) -- Data:  00 02 00 00  returns 0x01 (0001ms, 0822ms total)
T2BEC 001:928 JLINK_ReadMemU32(0xE0001048, 0x0001 Items, ...) -- CPU_ReadMem(4 bytes @ 0xE0001048) -- Data:  00 00 00 00  returns 0x01 (0003ms, 0825ms total)
T2BEC 001:931 JLINK_ReadMemU32(0xE0001058, 0x0001 Items, ...) -- CPU_ReadMem(4 bytes @ 0xE0001058) -- Data:  00 00 00 00  returns 0x01 (0002ms, 0827ms total)
T2BEC 001:934 JLINK_ReadReg(R0)  returns 0x200000C0 (0000ms, 0828ms total)
T2BEC 001:934 JLINK_ReadReg(R1)  returns 0x200000C0 (0000ms, 0828ms total)
T2BEC 001:934 JLINK_ReadReg(R2)  returns 0x200000C0 (0001ms, 0829ms total)
T2BEC 001:935 JLINK_ReadReg(R3)  returns 0x200000C0 (0000ms, 0829ms total)
T2BEC 001:935 JLINK_ReadReg(R4)  returns 0x00000000 (0000ms, 0829ms total)
T2BEC 001:935 JLINK_ReadReg(R5)  returns 0x2000005C (0000ms, 0829ms total)
T2BEC 001:935 JLINK_ReadReg(R6)  returns 0x00000000 (0000ms, 0829ms total)
T2BEC 001:935 JLINK_ReadReg(R7)  returns 0x00000000 (0000ms, 0829ms total)
T2BEC 001:935 JLINK_ReadReg(R8)  returns 0x00000000 (0000ms, 0829ms total)
T2BEC 001:935 JLINK_ReadReg(R9)  returns 0x20000160 (0001ms, 0830ms total)
T2BEC 001:936 JLINK_ReadReg(R10)  returns 0x08002800 (0000ms, 0830ms total)
T2BEC 001:936 JLINK_ReadReg(R11)  returns 0x00000000 (0000ms, 0830ms total)
T2BEC 001:936 JLINK_ReadReg(R12)  returns 0x2000009C (0000ms, 0830ms total)
T2BEC 001:936 JLINK_ReadReg(R13 (SP))  returns 0x200002C0 (0000ms, 0830ms total)
T2BEC 001:936 JLINK_ReadReg(R14)  returns 0x080001BB (0000ms, 0830ms total)
T2BEC 001:936 JLINK_ReadReg(R15 (PC))  returns 0x080001CC (0001ms, 0831ms total)
T2BEC 001:937 JLINK_ReadReg(XPSR)  returns 0x21000000 (0000ms, 0831ms total)
T2BEC 001:937 JLINK_ReadReg(MSP)  returns 0x200002C0 (0000ms, 0831ms total)
T2BEC 001:937 JLINK_ReadReg(PSP)  returns 0x20000800 (0000ms, 0831ms total)
T2BEC 001:937 JLINK_ReadReg(CFBP)  returns 0x00000000 (0000ms, 0831ms total)
T3078 001:940 JLINK_ReadMemU32(0xE0001004, 0x0001 Items, ...) -- CPU_ReadMem(4 bytes @ 0xE0001004) -- Data:  D9 09 00 00  returns 0x01 (0001ms, 0832ms total)
T3078 001:942 JLINK_ReadMem (0x080001CC, 0x003C Bytes, ...) -- CPU_ReadMem(128 bytes @ 0x080001C0) -- Updating C cache (128 bytes @ 0x080001C0) -- Read from C cache (60 bytes @ 0x080001CC) -- Data:  01 F0 F0 FF 4F F4 A0 60 00 F0 84 FC 00 F0 22 FA ...  returns 0x00 (0002ms, 0834ms total)
T2BEC 011:499 JLINK_Step() -- Read from C cache (2 bytes @ 0x080001CC) -- Read from C cache (2 bytes @ 0x080001CE) -- Simulated  returns 0x00 (0004ms, 0838ms total)
T2BEC 011:503 JLINK_ReadReg(R15 (PC))  returns 0x080021B0 (0000ms, 0838ms total)
T2BEC 011:504 JLINK_ReadReg(XPSR)  returns 0x21000000 (0000ms, 0839ms total)
T2BEC 011:504 JLINK_SetBPEx(Addr = 0x080001CC, Type = 0xFFFFFFF2)  returns 0x00000002 (0001ms, 0840ms total)
T2BEC 011:505 JLINK_SetBPEx(Addr = 0x080001F4, Type = 0xFFFFFFF2)  returns 0x00000003 (0000ms, 0840ms total)
T2BEC 011:505 JLINK_Go() -- CPU_WriteMem(4 bytes @ 0xE000200C) (0005ms, 0845ms total)
T2BEC 011:610 JLINK_IsHalted()  returns FALSE (0001ms, 0846ms total)
T2BEC 011:712 JLINK_IsHalted()  returns FALSE (0002ms, 0847ms total)
T2BEC 011:815 JLINK_IsHalted()  returns FALSE (0003ms, 0848ms total)
T2BEC 011:918 JLINK_IsHalted()  returns FALSE (0002ms, 0847ms total)
T2BEC 012:020 JLINK_IsHalted()  returns FALSE (0001ms, 0846ms total)
T2BEC 012:121 JLINK_ReadMemU32(0xE0001004, 0x0001 Items, ...) -- CPU is running -- CPU_ReadMem(4 bytes @ 0xE0001004) -- Data:  27 A6 81 02  returns 0x01 (0002ms, 0847ms total)
T2BEC 012:123 JLINK_IsHalted()  returns TRUE (0006ms, 0853ms total)
T2BEC 012:129 JLINK_Halt()  returns 0x00 (0001ms, 0848ms total)
T2BEC 012:130 JLINK_IsHalted()  returns TRUE (0001ms, 0849ms total)
T2BEC 012:131 JLINK_IsHalted()  returns TRUE (0001ms, 0849ms total)
T2BEC 012:132 JLINK_IsHalted()  returns TRUE (0000ms, 0848ms total)
T2BEC 012:132 JLINK_ReadReg(R15 (PC))  returns 0x080001F4 (0001ms, 0849ms total)
T2BEC 012:133 JLINK_ReadReg(XPSR)  returns 0x41000000 (0000ms, 0849ms total)
T2BEC 012:133 JLINK_ClrBPEx(BPHandle = 0x00000002)  returns 0x00 (0000ms, 0849ms total)
T2BEC 012:133 JLINK_ClrBPEx(BPHandle = 0x00000003)  returns 0x00 (0000ms, 0849ms total)
T2BEC 012:133 JLINK_ReadMemU32(0xE000ED30, 0x0001 Items, ...) -- CPU_ReadMem(4 bytes @ 0xE000ED30) -- Data:  03 00 00 00  returns 0x01 (0002ms, 0851ms total)
T2BEC 012:135 JLINK_ReadMemU32(0xE0001028, 0x0001 Items, ...) -- CPU_ReadMem(4 bytes @ 0xE0001028) -- Data:  00 00 00 00  returns 0x01 (0001ms, 0852ms total)
T2BEC 012:137 JLINK_ReadMemU32(0xE0001038, 0x0001 Items, ...) -- CPU_ReadMem(4 bytes @ 0xE0001038) -- Data:  00 02 00 00  returns 0x01 (0002ms, 0855ms total)
T2BEC 012:139 JLINK_ReadMemU32(0xE0001048, 0x0001 Items, ...) -- CPU_ReadMem(4 bytes @ 0xE0001048) -- Data:  00 00 00 00  returns 0x01 (0001ms, 0856ms total)
T2BEC 012:140 JLINK_ReadMemU32(0xE0001058, 0x0001 Items, ...) -- CPU_ReadMem(4 bytes @ 0xE0001058) -- Data:  00 00 00 00  returns 0x01 (0002ms, 0858ms total)
T2BEC 012:142 JLINK_ReadReg(R0)  returns 0x00000000 (0000ms, 0858ms total)
T2BEC 012:142 JLINK_ReadReg(R1)  returns 0x00000001 (0000ms, 0858ms total)
T2BEC 012:142 JLINK_ReadReg(R2)  returns 0x00000081 (0000ms, 0858ms total)
T2BEC 012:143 JLINK_ReadReg(R3)  returns 0x00000800 (0000ms, 0859ms total)
T2BEC 012:143 JLINK_ReadReg(R4)  returns 0x00000000 (0000ms, 0859ms total)
T2BEC 012:143 JLINK_ReadReg(R5)  returns 0x2000005C (0000ms, 0859ms total)
T2BEC 012:143 JLINK_ReadReg(R6)  returns 0x00000000 (0000ms, 0859ms total)
T2BEC 012:143 JLINK_ReadReg(R7)  returns 0x00000000 (0000ms, 0859ms total)
T2BEC 012:143 JLINK_ReadReg(R8)  returns 0x00000000 (0000ms, 0859ms total)
T2BEC 012:143 JLINK_ReadReg(R9)  returns 0x20000160 (0001ms, 0860ms total)
T2BEC 012:144 JLINK_ReadReg(R10)  returns 0x08002800 (0000ms, 0860ms total)
T2BEC 012:144 JLINK_ReadReg(R11)  returns 0x00000000 (0000ms, 0860ms total)
T2BEC 012:144 JLINK_ReadReg(R12)  returns 0x0000000F (0000ms, 0860ms total)
T2BEC 012:144 JLINK_ReadReg(R13 (SP))  returns 0x200002C0 (0000ms, 0860ms total)
T2BEC 012:144 JLINK_ReadReg(R14)  returns 0x08000301 (0000ms, 0860ms total)
T2BEC 012:144 JLINK_ReadReg(R15 (PC))  returns 0x080001F4 (0000ms, 0860ms total)
T2BEC 012:144 JLINK_ReadReg(XPSR)  returns 0x41000000 (0000ms, 0860ms total)
T2BEC 012:144 JLINK_ReadReg(MSP)  returns 0x200002C0 (0001ms, 0861ms total)
T2BEC 012:145 JLINK_ReadReg(PSP)  returns 0x20000800 (0000ms, 0861ms total)
T2BEC 012:145 JLINK_ReadReg(CFBP)  returns 0x00000000 (0000ms, 0861ms total)
T3078 012:146 JLINK_ReadMemU32(0xE0001004, 0x0001 Items, ...) -- CPU_ReadMem(4 bytes @ 0xE0001004) -- Data:  27 A6 81 02  returns 0x01 (0002ms, 0863ms total)
T3078 012:148 JLINK_ReadMem (0x080001F4, 0x003C Bytes, ...) -- CPU_ReadMem(128 bytes @ 0x080001C0) -- Updating C cache (128 bytes @ 0x080001C0) -- Read from C cache (60 bytes @ 0x080001F4) -- Data:  00 F0 EE FB 00 F0 FF FB 00 F0 10 FC F8 E7 00 00 ...  returns 0x00 (0002ms, 0865ms total)
T2BEC 014:218 JLINK_Step() -- Read from C cache (2 bytes @ 0x080001F4) -- Read from C cache (2 bytes @ 0x080001F6) -- Simulated  returns 0x00 (0004ms, 0869ms total)
T2BEC 014:222 JLINK_ReadReg(R15 (PC))  returns 0x080009D4 (0001ms, 0870ms total)
T2BEC 014:223 JLINK_ReadReg(XPSR)  returns 0x41000000 (0001ms, 0871ms total)
T2BEC 014:224 JLINK_ReadReg(R0)  returns 0x00000000 (0000ms, 0871ms total)
T2BEC 014:224 JLINK_ReadReg(R1)  returns 0x00000001 (0001ms, 0872ms total)
T2BEC 014:225 JLINK_ReadReg(R2)  returns 0x00000081 (0000ms, 0872ms total)
T2BEC 014:225 JLINK_ReadReg(R3)  returns 0x00000800 (0000ms, 0872ms total)
T2BEC 014:226 JLINK_ReadReg(R4)  returns 0x00000000 (0000ms, 0873ms total)
T2BEC 014:226 JLINK_ReadReg(R5)  returns 0x2000005C (0000ms, 0873ms total)
T2BEC 014:226 JLINK_ReadReg(R6)  returns 0x00000000 (0000ms, 0873ms total)
T2BEC 014:226 JLINK_ReadReg(R7)  returns 0x00000000 (0000ms, 0873ms total)
T2BEC 014:226 JLINK_ReadReg(R8)  returns 0x00000000 (0000ms, 0873ms total)
T2BEC 014:226 JLINK_ReadReg(R9)  returns 0x20000160 (0000ms, 0873ms total)
T2BEC 014:226 JLINK_ReadReg(R10)  returns 0x08002800 (0000ms, 0873ms total)
T2BEC 014:226 JLINK_ReadReg(R11)  returns 0x00000000 (0001ms, 0874ms total)
T2BEC 014:227 JLINK_ReadReg(R12)  returns 0x0000000F (0000ms, 0874ms total)
T2BEC 014:227 JLINK_ReadReg(R13 (SP))  returns 0x200002C0 (0000ms, 0874ms total)
T2BEC 014:227 JLINK_ReadReg(R14)  returns 0x080001F9 (0000ms, 0874ms total)
T2BEC 014:227 JLINK_ReadReg(R15 (PC))  returns 0x080009D4 (0000ms, 0874ms total)
T2BEC 014:227 JLINK_ReadReg(XPSR)  returns 0x41000000 (0000ms, 0874ms total)
T2BEC 014:227 JLINK_ReadReg(MSP)  returns 0x200002C0 (0001ms, 0875ms total)
T2BEC 014:228 JLINK_ReadReg(PSP)  returns 0x20000800 (0000ms, 0875ms total)
T2BEC 014:228 JLINK_ReadReg(CFBP)  returns 0x00000000 (0000ms, 0875ms total)
T3078 014:232 JLINK_ReadMemU32(0xE0001004, 0x0001 Items, ...) -- Data:  27 A6 81 02  returns 0x01 (0001ms, 0876ms total)
T3078 014:233 JLINK_ReadMem (0x080009D4, 0x003C Bytes, ...) -- CPU_ReadMem(128 bytes @ 0x080009C0) -- Updating C cache (128 bytes @ 0x080009C0) -- Read from C cache (60 bytes @ 0x080009D4) -- Data:  70 B5 00 24 00 25 00 26 3B 21 D0 20 FF F7 A2 FF ...  returns 0x00 (0002ms, 0878ms total)
T2BEC 017:133 JLINK_Step() -- Read from C cache (2 bytes @ 0x080009D4) -- CPU_WriteMem(16 bytes @ 0x200002B0) -- Simulated  returns 0x00 (0004ms, 0882ms total)
T2BEC 017:137 JLINK_ReadReg(R15 (PC))  returns 0x080009D6 (0001ms, 0883ms total)
T2BEC 017:138 JLINK_ReadReg(XPSR)  returns 0x41000000 (0000ms, 0883ms total)
T2BEC 017:138 JLINK_ReadReg(R0)  returns 0x00000000 (0001ms, 0884ms total)
T2BEC 017:139 JLINK_ReadReg(R1)  returns 0x00000001 (0000ms, 0884ms total)
T2BEC 017:139 JLINK_ReadReg(R2)  returns 0x00000081 (0000ms, 0884ms total)
T2BEC 017:139 JLINK_ReadReg(R3)  returns 0x00000800 (0000ms, 0884ms total)
T2BEC 017:139 JLINK_ReadReg(R4)  returns 0x00000000 (0000ms, 0884ms total)
T2BEC 017:139 JLINK_ReadReg(R5)  returns 0x2000005C (0000ms, 0884ms total)
T2BEC 017:139 JLINK_ReadReg(R6)  returns 0x00000000 (0000ms, 0884ms total)
T2BEC 017:139 JLINK_ReadReg(R7)  returns 0x00000000 (0000ms, 0884ms total)
T2BEC 017:140 JLINK_ReadReg(R8)  returns 0x00000000 (0000ms, 0885ms total)
T2BEC 017:140 JLINK_ReadReg(R9)  returns 0x20000160 (0000ms, 0885ms total)
T2BEC 017:140 JLINK_ReadReg(R10)  returns 0x08002800 (0000ms, 0885ms total)
T2BEC 017:140 JLINK_ReadReg(R11)  returns 0x00000000 (0000ms, 0885ms total)
T2BEC 017:140 JLINK_ReadReg(R12)  returns 0x0000000F (0000ms, 0885ms total)
T2BEC 017:140 JLINK_ReadReg(R13 (SP))  returns 0x200002B0 (0001ms, 0886ms total)
T2BEC 017:141 JLINK_ReadReg(R14)  returns 0x080001F9 (0000ms, 0886ms total)
T2BEC 017:141 JLINK_ReadReg(R15 (PC))  returns 0x080009D6 (0001ms, 0887ms total)
T2BEC 017:142 JLINK_ReadReg(XPSR)  returns 0x41000000 (0000ms, 0887ms total)
T2BEC 017:142 JLINK_ReadReg(MSP)  returns 0x200002B0 (0000ms, 0887ms total)
T2BEC 017:142 JLINK_ReadReg(PSP)  returns 0x20000800 (0000ms, 0887ms total)
T2BEC 017:142 JLINK_ReadReg(CFBP)  returns 0x00000000 (0000ms, 0887ms total)
T3078 017:142 JLINK_ReadMem (0x200002BC, 0x0004 Bytes, ...) -- CPU_ReadMem(64 bytes @ 0x20000280) -- Updating C cache (64 bytes @ 0x20000280) -- Read from C cache (4 bytes @ 0x200002BC) -- Data:  F9 01 00 08  returns 0x00 (0003ms, 0890ms total)
T3078 017:145 JLINK_ReadMem (0x200002B0, 0x0004 Bytes, ...) -- Read from C cache (4 bytes @ 0x200002B0) -- Data:  00 00 00 00  returns 0x00 (0000ms, 0890ms total)
T3078 017:145 JLINK_ReadMem (0x200002B4, 0x0004 Bytes, ...) -- Read from C cache (4 bytes @ 0x200002B4) -- Data:  5C 00 00 20  returns 0x00 (0001ms, 0891ms total)
T3078 017:146 JLINK_ReadMem (0x200002B8, 0x0004 Bytes, ...) -- Read from C cache (4 bytes @ 0x200002B8) -- Data:  00 00 00 00  returns 0x00 (0000ms, 0891ms total)
T3078 017:146 JLINK_ReadMemU32(0xE0001004, 0x0001 Items, ...) -- Data:  27 A6 81 02  returns 0x01 (0000ms, 0891ms total)
T2BEC 017:614 JLINK_ReadMem (0x080009D6, 0x0002 Bytes, ...) -- Read from C cache (2 bytes @ 0x080009D6) -- Data:  00 24  returns 0x00 (0001ms, 0892ms total)
T2BEC 017:615 JLINK_ReadMem (0x080009D8, 0x003C Bytes, ...) -- Read from C cache (60 bytes @ 0x080009D8) -- Data:  00 25 00 26 3B 21 D0 20 FF F7 A2 FF 05 46 3C 21 ...  returns 0x00 (0001ms, 0893ms total)
T2BEC 017:616 JLINK_Step() -- Read from C cache (2 bytes @ 0x080009D6) -- Simulated  returns 0x00 (0001ms, 0894ms total)
T2BEC 017:617 JLINK_ReadReg(R15 (PC))  returns 0x080009D8 (0000ms, 0894ms total)
T2BEC 017:618 JLINK_ReadReg(XPSR)  returns 0x41000000 (0000ms, 0895ms total)
T2BEC 017:618 JLINK_ReadReg(R0)  returns 0x00000000 (0000ms, 0895ms total)
T2BEC 017:618 JLINK_ReadReg(R1)  returns 0x00000001 (0000ms, 0895ms total)
T2BEC 017:618 JLINK_ReadReg(R2)  returns 0x00000081 (0000ms, 0895ms total)
T2BEC 017:618 JLINK_ReadReg(R3)  returns 0x00000800 (0000ms, 0895ms total)
T2BEC 017:618 JLINK_ReadReg(R4)  returns 0x00000000 (0000ms, 0895ms total)
T2BEC 017:619 JLINK_ReadReg(R5)  returns 0x2000005C (0000ms, 0896ms total)
T2BEC 017:619 JLINK_ReadReg(R6)  returns 0x00000000 (0000ms, 0896ms total)
T2BEC 017:619 JLINK_ReadReg(R7)  returns 0x00000000 (0000ms, 0896ms total)
T2BEC 017:619 JLINK_ReadReg(R8)  returns 0x00000000 (0000ms, 0896ms total)
T2BEC 017:619 JLINK_ReadReg(R9)  returns 0x20000160 (0000ms, 0896ms total)
T2BEC 017:619 JLINK_ReadReg(R10)  returns 0x08002800 (0000ms, 0896ms total)
T2BEC 017:619 JLINK_ReadReg(R11)  returns 0x00000000 (0001ms, 0897ms total)
T2BEC 017:620 JLINK_ReadReg(R12)  returns 0x0000000F (0000ms, 0897ms total)
T2BEC 017:620 JLINK_ReadReg(R13 (SP))  returns 0x200002B0 (0000ms, 0897ms total)
T2BEC 017:620 JLINK_ReadReg(R14)  returns 0x080001F9 (0000ms, 0897ms total)
T2BEC 017:620 JLINK_ReadReg(R15 (PC))  returns 0x080009D8 (0000ms, 0897ms total)
T2BEC 017:620 JLINK_ReadReg(XPSR)  returns 0x41000000 (0000ms, 0897ms total)
T2BEC 017:620 JLINK_ReadReg(MSP)  returns 0x200002B0 (0000ms, 0897ms total)
T2BEC 017:620 JLINK_ReadReg(PSP)  returns 0x20000800 (0001ms, 0898ms total)
T2BEC 017:621 JLINK_ReadReg(CFBP)  returns 0x00000000 (0000ms, 0898ms total)
T3078 017:621 JLINK_ReadMem (0x200002BC, 0x0004 Bytes, ...) -- Read from C cache (4 bytes @ 0x200002BC) -- Data:  F9 01 00 08  returns 0x00 (0000ms, 0898ms total)
T3078 017:621 JLINK_ReadMem (0x200002B0, 0x0004 Bytes, ...) -- Read from C cache (4 bytes @ 0x200002B0) -- Data:  00 00 00 00  returns 0x00 (0000ms, 0898ms total)
T3078 017:622 JLINK_ReadMem (0x200002B4, 0x0004 Bytes, ...) -- Read from C cache (4 bytes @ 0x200002B4) -- Data:  5C 00 00 20  returns 0x00 (0000ms, 0899ms total)
T3078 017:622 JLINK_ReadMem (0x200002B8, 0x0004 Bytes, ...) -- Read from C cache (4 bytes @ 0x200002B8) -- Data:  00 00 00 00  returns 0x00 (0001ms, 0900ms total)
T3078 017:623 JLINK_ReadMemU32(0xE0001004, 0x0001 Items, ...) -- Data:  27 A6 81 02  returns 0x01 (0000ms, 0900ms total)
T3078 017:623 JLINK_ReadMem (0x080009D8, 0x003C Bytes, ...) -- Read from C cache (60 bytes @ 0x080009D8) -- Data:  00 25 00 26 3B 21 D0 20 FF F7 A2 FF 05 46 3C 21 ...  returns 0x00 (0000ms, 0900ms total)
T2BEC 018:008 JLINK_Step() -- Read from C cache (2 bytes @ 0x080009D8) -- Simulated  returns 0x00 (0003ms, 0904ms total)
T2BEC 018:011 JLINK_ReadReg(R15 (PC))  returns 0x080009DA (0000ms, 0904ms total)
T2BEC 018:011 JLINK_ReadReg(XPSR)  returns 0x41000000 (0001ms, 0905ms total)
T2BEC 018:012 JLINK_ReadReg(R0)  returns 0x00000000 (0000ms, 0905ms total)
T2BEC 018:012 JLINK_ReadReg(R1)  returns 0x00000001 (0000ms, 0905ms total)
T2BEC 018:012 JLINK_ReadReg(R2)  returns 0x00000081 (0000ms, 0905ms total)
T2BEC 018:012 JLINK_ReadReg(R3)  returns 0x00000800 (0000ms, 0905ms total)
T2BEC 018:012 JLINK_ReadReg(R4)  returns 0x00000000 (0001ms, 0906ms total)
T2BEC 018:013 JLINK_ReadReg(R5)  returns 0x00000000 (0000ms, 0906ms total)
T2BEC 018:013 JLINK_ReadReg(R6)  returns 0x00000000 (0000ms, 0906ms total)
T2BEC 018:013 JLINK_ReadReg(R7)  returns 0x00000000 (0000ms, 0906ms total)
T2BEC 018:013 JLINK_ReadReg(R8)  returns 0x00000000 (0000ms, 0906ms total)
T2BEC 018:013 JLINK_ReadReg(R9)  returns 0x20000160 (0000ms, 0906ms total)
T2BEC 018:013 JLINK_ReadReg(R10)  returns 0x08002800 (0000ms, 0906ms total)
T2BEC 018:013 JLINK_ReadReg(R11)  returns 0x00000000 (0000ms, 0906ms total)
T2BEC 018:014 JLINK_ReadReg(R12)  returns 0x0000000F (0000ms, 0907ms total)
T2BEC 018:014 JLINK_ReadReg(R13 (SP))  returns 0x200002B0 (0000ms, 0907ms total)
T2BEC 018:014 JLINK_ReadReg(R14)  returns 0x080001F9 (0001ms, 0908ms total)
T2BEC 018:015 JLINK_ReadReg(R15 (PC))  returns 0x080009DA (0000ms, 0908ms total)
T2BEC 018:015 JLINK_ReadReg(XPSR)  returns 0x41000000 (0000ms, 0908ms total)
T2BEC 018:015 JLINK_ReadReg(MSP)  returns 0x200002B0 (0000ms, 0908ms total)
T2BEC 018:015 JLINK_ReadReg(PSP)  returns 0x20000800 (0000ms, 0908ms total)
T2BEC 018:015 JLINK_ReadReg(CFBP)  returns 0x00000000 (0000ms, 0908ms total)
T3078 018:015 JLINK_ReadMem (0x200002BC, 0x0004 Bytes, ...) -- Read from C cache (4 bytes @ 0x200002BC) -- Data:  F9 01 00 08  returns 0x00 (0001ms, 0909ms total)
T3078 018:016 JLINK_ReadMem (0x200002B0, 0x0004 Bytes, ...) -- Read from C cache (4 bytes @ 0x200002B0) -- Data:  00 00 00 00  returns 0x00 (0000ms, 0909ms total)
T3078 018:016 JLINK_ReadMem (0x200002B4, 0x0004 Bytes, ...) -- Read from C cache (4 bytes @ 0x200002B4) -- Data:  5C 00 00 20  returns 0x00 (0000ms, 0909ms total)
T3078 018:016 JLINK_ReadMem (0x200002B8, 0x0004 Bytes, ...) -- Read from C cache (4 bytes @ 0x200002B8) -- Data:  00 00 00 00  returns 0x00 (0001ms, 0910ms total)
T3078 018:017 JLINK_ReadMemU32(0xE0001004, 0x0001 Items, ...) -- Data:  27 A6 81 02  returns 0x01 (0000ms, 0910ms total)
T2BEC 018:716 JLINK_ReadMem (0x080009DA, 0x0002 Bytes, ...) -- Read from C cache (2 bytes @ 0x080009DA) -- Data:  00 26  returns 0x00 (0001ms, 0912ms total)
T2BEC 018:717 JLINK_ReadMem (0x080009DC, 0x003C Bytes, ...) -- Read from C cache (60 bytes @ 0x080009DC) -- Data:  3B 21 D0 20 FF F7 A2 FF 05 46 3C 21 D0 20 FF F7 ...  returns 0x00 (0001ms, 0913ms total)
T2BEC 018:718 JLINK_Step() -- Read from C cache (2 bytes @ 0x080009DA) -- Simulated  returns 0x00 (0002ms, 0915ms total)
T2BEC 018:720 JLINK_ReadReg(R15 (PC))  returns 0x080009DC (0000ms, 0915ms total)
T2BEC 018:720 JLINK_ReadReg(XPSR)  returns 0x41000000 (0000ms, 0915ms total)
T2BEC 018:721 JLINK_ReadReg(R0)  returns 0x00000000 (0000ms, 0916ms total)
T2BEC 018:721 JLINK_ReadReg(R1)  returns 0x00000001 (0001ms, 0917ms total)
T2BEC 018:722 JLINK_ReadReg(R2)  returns 0x00000081 (0000ms, 0917ms total)
T2BEC 018:722 JLINK_ReadReg(R3)  returns 0x00000800 (0000ms, 0917ms total)
T2BEC 018:723 JLINK_ReadReg(R4)  returns 0x00000000 (0000ms, 0918ms total)
T2BEC 018:723 JLINK_ReadReg(R5)  returns 0x00000000 (0000ms, 0918ms total)
T2BEC 018:724 JLINK_ReadReg(R6)  returns 0x00000000 (0000ms, 0919ms total)
T2BEC 018:724 JLINK_ReadReg(R7)  returns 0x00000000 (0000ms, 0919ms total)
T2BEC 018:724 JLINK_ReadReg(R8)  returns 0x00000000 (0001ms, 0920ms total)
T2BEC 018:725 JLINK_ReadReg(R9)  returns 0x20000160 (0000ms, 0920ms total)
T2BEC 018:725 JLINK_ReadReg(R10)  returns 0x08002800 (0000ms, 0920ms total)
T2BEC 018:725 JLINK_ReadReg(R11)  returns 0x00000000 (0001ms, 0921ms total)
T2BEC 018:726 JLINK_ReadReg(R12)  returns 0x0000000F (0000ms, 0921ms total)
T2BEC 018:726 JLINK_ReadReg(R13 (SP))  returns 0x200002B0 (0000ms, 0921ms total)
T2BEC 018:726 JLINK_ReadReg(R14)  returns 0x080001F9 (0001ms, 0922ms total)
T2BEC 018:727 JLINK_ReadReg(R15 (PC))  returns 0x080009DC (0000ms, 0922ms total)
T2BEC 018:727 JLINK_ReadReg(XPSR)  returns 0x41000000 (0000ms, 0922ms total)
T2BEC 018:727 JLINK_ReadReg(MSP)  returns 0x200002B0 (0000ms, 0922ms total)
T2BEC 018:727 JLINK_ReadReg(PSP)  returns 0x20000800 (0001ms, 0923ms total)
T2BEC 018:728 JLINK_ReadReg(CFBP)  returns 0x00000000 (0000ms, 0923ms total)
T3078 018:728 JLINK_ReadMem (0x200002BC, 0x0004 Bytes, ...) -- Read from C cache (4 bytes @ 0x200002BC) -- Data:  F9 01 00 08  returns 0x00 (0001ms, 0924ms total)
T3078 018:729 JLINK_ReadMem (0x200002B0, 0x0004 Bytes, ...) -- Read from C cache (4 bytes @ 0x200002B0) -- Data:  00 00 00 00  returns 0x00 (0000ms, 0924ms total)
T3078 018:729 JLINK_ReadMem (0x200002B4, 0x0004 Bytes, ...) -- Read from C cache (4 bytes @ 0x200002B4) -- Data:  5C 00 00 20  returns 0x00 (0000ms, 0924ms total)
T3078 018:729 JLINK_ReadMem (0x200002B8, 0x0004 Bytes, ...) -- Read from C cache (4 bytes @ 0x200002B8) -- Data:  00 00 00 00  returns 0x00 (0001ms, 0925ms total)
T3078 018:730 JLINK_ReadMemU32(0xE0001004, 0x0001 Items, ...) -- Data:  27 A6 81 02  returns 0x01 (0000ms, 0925ms total)
T3078 018:730 JLINK_ReadMem (0x080009DC, 0x003C Bytes, ...) -- Read from C cache (60 bytes @ 0x080009DC) -- Data:  3B 21 D0 20 FF F7 A2 FF 05 46 3C 21 D0 20 FF F7 ...  returns 0x00 (0001ms, 0926ms total)
T2BEC 019:520 JLINK_Step() -- Read from C cache (2 bytes @ 0x080009DC) -- Simulated  returns 0x00 (0002ms, 0928ms total)
T2BEC 019:522 JLINK_ReadReg(R15 (PC))  returns 0x080009DE (0001ms, 0929ms total)
T2BEC 019:523 JLINK_ReadReg(XPSR)  returns 0x01000000 (0000ms, 0929ms total)
T2BEC 019:524 JLINK_ReadReg(R0)  returns 0x00000000 (0000ms, 0929ms total)
T2BEC 019:524 JLINK_ReadReg(R1)  returns 0x0000003B (0000ms, 0929ms total)
T2BEC 019:524 JLINK_ReadReg(R2)  returns 0x00000081 (0000ms, 0929ms total)
T2BEC 019:524 JLINK_ReadReg(R3)  returns 0x00000800 (0000ms, 0929ms total)
T2BEC 019:524 JLINK_ReadReg(R4)  returns 0x00000000 (0000ms, 0929ms total)
T2BEC 019:524 JLINK_ReadReg(R5)  returns 0x00000000 (0000ms, 0929ms total)
T2BEC 019:524 JLINK_ReadReg(R6)  returns 0x00000000 (0001ms, 0930ms total)
T2BEC 019:525 JLINK_ReadReg(R7)  returns 0x00000000 (0000ms, 0930ms total)
T2BEC 019:525 JLINK_ReadReg(R8)  returns 0x00000000 (0000ms, 0930ms total)
T2BEC 019:525 JLINK_ReadReg(R9)  returns 0x20000160 (0000ms, 0930ms total)
T2BEC 019:525 JLINK_ReadReg(R10)  returns 0x08002800 (0000ms, 0930ms total)
T2BEC 019:525 JLINK_ReadReg(R11)  returns 0x00000000 (0000ms, 0930ms total)
T2BEC 019:525 JLINK_ReadReg(R12)  returns 0x0000000F (0000ms, 0930ms total)
T2BEC 019:525 JLINK_ReadReg(R13 (SP))  returns 0x200002B0 (0001ms, 0931ms total)
T2BEC 019:526 JLINK_ReadReg(R14)  returns 0x080001F9 (0000ms, 0931ms total)
T2BEC 019:526 JLINK_ReadReg(R15 (PC))  returns 0x080009DE (0000ms, 0931ms total)
T2BEC 019:526 JLINK_ReadReg(XPSR)  returns 0x01000000 (0000ms, 0931ms total)
T2BEC 019:527 JLINK_ReadReg(MSP)  returns 0x200002B0 (0000ms, 0931ms total)
T2BEC 019:527 JLINK_ReadReg(PSP)  returns 0x20000800 (0000ms, 0931ms total)
T2BEC 019:527 JLINK_ReadReg(CFBP)  returns 0x00000000 (0001ms, 0932ms total)
T3078 019:528 JLINK_ReadMem (0x200002BC, 0x0004 Bytes, ...) -- Read from C cache (4 bytes @ 0x200002BC) -- Data:  F9 01 00 08  returns 0x00 (0000ms, 0932ms total)
T3078 019:528 JLINK_ReadMem (0x200002B0, 0x0004 Bytes, ...) -- Read from C cache (4 bytes @ 0x200002B0) -- Data:  00 00 00 00  returns 0x00 (0000ms, 0932ms total)
T3078 019:528 JLINK_ReadMem (0x200002B4, 0x0004 Bytes, ...) -- Read from C cache (4 bytes @ 0x200002B4) -- Data:  5C 00 00 20  returns 0x00 (0001ms, 0933ms total)
T3078 019:530 JLINK_ReadMem (0x200002B8, 0x0004 Bytes, ...) -- Read from C cache (4 bytes @ 0x200002B8) -- Data:  00 00 00 00  returns 0x00 (0000ms, 0934ms total)
T3078 019:530 JLINK_ReadMemU32(0xE0001004, 0x0001 Items, ...) -- Data:  27 A6 81 02  returns 0x01 (0000ms, 0934ms total)
T2BEC 023:808 JLINK_ReadMem (0x080009DE, 0x0002 Bytes, ...) -- Read from C cache (2 bytes @ 0x080009DE) -- Data:  D0 20  returns 0x00 (0002ms, 0936ms total)
T2BEC 023:810 JLINK_ReadMem (0x080009E0, 0x003C Bytes, ...) -- Read from C cache (60 bytes @ 0x080009E0) -- Data:  FF F7 A2 FF 05 46 3C 21 D0 20 FF F7 9D FF 06 46 ...  returns 0x00 (0001ms, 0937ms total)
T2BEC 023:811 JLINK_Step() -- Read from C cache (2 bytes @ 0x080009DE) -- Simulated  returns 0x00 (0002ms, 0939ms total)
T2BEC 023:813 JLINK_ReadReg(R15 (PC))  returns 0x080009E0 (0000ms, 0939ms total)
T2BEC 023:813 JLINK_ReadReg(XPSR)  returns 0x01000000 (0000ms, 0939ms total)
T2BEC 023:813 JLINK_ReadReg(R0)  returns 0x000000D0 (0000ms, 0939ms total)
T2BEC 023:813 JLINK_ReadReg(R1)  returns 0x0000003B (0000ms, 0939ms total)
T2BEC 023:813 JLINK_ReadReg(R2)  returns 0x00000081 (0000ms, 0939ms total)
T2BEC 023:814 JLINK_ReadReg(R3)  returns 0x00000800 (0000ms, 0940ms total)
T2BEC 023:814 JLINK_ReadReg(R4)  returns 0x00000000 (0000ms, 0940ms total)
T2BEC 023:814 JLINK_ReadReg(R5)  returns 0x00000000 (0000ms, 0940ms total)
T2BEC 023:814 JLINK_ReadReg(R6)  returns 0x00000000 (0000ms, 0940ms total)
T2BEC 023:814 JLINK_ReadReg(R7)  returns 0x00000000 (0000ms, 0940ms total)
T2BEC 023:814 JLINK_ReadReg(R8)  returns 0x00000000 (0000ms, 0940ms total)
T2BEC 023:814 JLINK_ReadReg(R9)  returns 0x20000160 (0000ms, 0940ms total)
T2BEC 023:814 JLINK_ReadReg(R10)  returns 0x08002800 (0000ms, 0940ms total)
T2BEC 023:815 JLINK_ReadReg(R11)  returns 0x00000000 (0000ms, 0941ms total)
T2BEC 023:815 JLINK_ReadReg(R12)  returns 0x0000000F (0000ms, 0941ms total)
T2BEC 023:815 JLINK_ReadReg(R13 (SP))  returns 0x200002B0 (0000ms, 0941ms total)
T2BEC 023:815 JLINK_ReadReg(R14)  returns 0x080001F9 (0000ms, 0941ms total)
T2BEC 023:815 JLINK_ReadReg(R15 (PC))  returns 0x080009E0 (0000ms, 0941ms total)
T2BEC 023:815 JLINK_ReadReg(XPSR)  returns 0x01000000 (0000ms, 0941ms total)
T2BEC 023:815 JLINK_ReadReg(MSP)  returns 0x200002B0 (0000ms, 0941ms total)
T2BEC 023:815 JLINK_ReadReg(PSP)  returns 0x20000800 (0001ms, 0942ms total)
T2BEC 023:816 JLINK_ReadReg(CFBP)  returns 0x00000000 (0000ms, 0942ms total)
T3078 023:816 JLINK_ReadMem (0x200002BC, 0x0004 Bytes, ...) -- Read from C cache (4 bytes @ 0x200002BC) -- Data:  F9 01 00 08  returns 0x00 (0000ms, 0942ms total)
T3078 023:816 JLINK_ReadMem (0x200002B0, 0x0004 Bytes, ...) -- Read from C cache (4 bytes @ 0x200002B0) -- Data:  00 00 00 00  returns 0x00 (0000ms, 0942ms total)
T3078 023:817 JLINK_ReadMem (0x200002B4, 0x0004 Bytes, ...) -- Read from C cache (4 bytes @ 0x200002B4) -- Data:  5C 00 00 20  returns 0x00 (0000ms, 0943ms total)
T3078 023:817 JLINK_ReadMem (0x200002B8, 0x0004 Bytes, ...) -- Read from C cache (4 bytes @ 0x200002B8) -- Data:  00 00 00 00  returns 0x00 (0000ms, 0943ms total)
T3078 023:817 JLINK_ReadMemU32(0xE0001004, 0x0001 Items, ...) -- Data:  27 A6 81 02  returns 0x01 (0000ms, 0943ms total)
T2BEC 024:557 JLINK_ReadMem (0x080009E0, 0x003C Bytes, ...) -- Read from C cache (60 bytes @ 0x080009E0) -- Data:  FF F7 A2 FF 05 46 3C 21 D0 20 FF F7 9D FF 06 46 ...  returns 0x00 (0001ms, 0944ms total)
T2BEC 024:558 JLINK_SetBPEx(Addr = 0x080009E4, Type = 0xFFFFFFF2)  returns 0x00000004 (0001ms, 0945ms total)
T2BEC 024:559 JLINK_SetBPEx(Addr = 0x080001CC, Type = 0xFFFFFFF2)  returns 0x00000005 (0000ms, 0945ms total)
T2BEC 024:559 JLINK_SetBPEx(Addr = 0x080001F4, Type = 0xFFFFFFF2)  returns 0x00000006 (0001ms, 0946ms total)
T2BEC 024:560 JLINK_Go() -- CPU_WriteMem(4 bytes @ 0xE0002008) -- CPU_WriteMem(4 bytes @ 0xE000200C) -- CPU_WriteMem(4 bytes @ 0xE0002010) (0008ms, 0954ms total)
T2BEC 024:668 JLINK_IsHalted()  returns TRUE (0005ms, 0959ms total)
T2BEC 024:673 JLINK_Halt()  returns 0x00 (0001ms, 0955ms total)
T2BEC 024:674 JLINK_IsHalted()  returns TRUE (0001ms, 0956ms total)
T2BEC 024:675 JLINK_IsHalted()  returns TRUE (0000ms, 0955ms total)
T2BEC 024:676 JLINK_IsHalted()  returns TRUE (0000ms, 0955ms total)
T2BEC 024:676 JLINK_ReadReg(R15 (PC))  returns 0x080009E4 (0000ms, 0955ms total)
T2BEC 024:676 JLINK_ReadReg(XPSR)  returns 0x61000000 (0001ms, 0956ms total)
T2BEC 024:677 JLINK_ClrBPEx(BPHandle = 0x00000004)  returns 0x00 (0000ms, 0956ms total)
T2BEC 024:678 JLINK_ClrBPEx(BPHandle = 0x00000005)  returns 0x00 (0000ms, 0957ms total)
T2BEC 024:678 JLINK_ClrBPEx(BPHandle = 0x00000006)  returns 0x00 (0000ms, 0957ms total)
T2BEC 024:678 JLINK_ReadMemU32(0xE000ED30, 0x0001 Items, ...) -- CPU_ReadMem(4 bytes @ 0xE000ED30) -- Data:  03 00 00 00  returns 0x01 (0002ms, 0959ms total)
T2BEC 024:680 JLINK_ReadMemU32(0xE0001028, 0x0001 Items, ...) -- CPU_ReadMem(4 bytes @ 0xE0001028) -- Data:  00 00 00 00  returns 0x01 (0001ms, 0960ms total)
T2BEC 024:681 JLINK_ReadMemU32(0xE0001038, 0x0001 Items, ...) -- CPU_ReadMem(4 bytes @ 0xE0001038) -- Data:  00 02 00 00  returns 0x01 (0002ms, 0962ms total)
T2BEC 024:683 JLINK_ReadMemU32(0xE0001048, 0x0001 Items, ...) -- CPU_ReadMem(4 bytes @ 0xE0001048) -- Data:  00 00 00 00  returns 0x01 (0001ms, 0963ms total)
T2BEC 024:684 JLINK_ReadMemU32(0xE0001058, 0x0001 Items, ...) -- CPU_ReadMem(4 bytes @ 0xE0001058) -- Data:  00 00 00 00  returns 0x01 (0002ms, 0965ms total)
T2BEC 024:686 JLINK_ReadReg(R0)  returns 0x00000000 (0000ms, 0965ms total)
T2BEC 024:686 JLINK_ReadReg(R1)  returns 0x00000000 (0000ms, 0965ms total)
T2BEC 024:686 JLINK_ReadReg(R2)  returns 0x00000081 (0000ms, 0965ms total)
T2BEC 024:686 JLINK_ReadReg(R3)  returns 0x00000800 (0000ms, 0965ms total)
T2BEC 024:687 JLINK_ReadReg(R4)  returns 0x00000000 (0000ms, 0966ms total)
T2BEC 024:687 JLINK_ReadReg(R5)  returns 0x00000000 (0000ms, 0966ms total)
T2BEC 024:687 JLINK_ReadReg(R6)  returns 0x00000000 (0000ms, 0966ms total)
T2BEC 024:687 JLINK_ReadReg(R7)  returns 0x00000000 (0000ms, 0966ms total)
T2BEC 024:687 JLINK_ReadReg(R8)  returns 0x00000000 (0000ms, 0966ms total)
T2BEC 024:687 JLINK_ReadReg(R9)  returns 0x20000160 (0000ms, 0966ms total)
T2BEC 024:687 JLINK_ReadReg(R10)  returns 0x08002800 (0000ms, 0966ms total)
T2BEC 024:687 JLINK_ReadReg(R11)  returns 0x00000000 (0001ms, 0967ms total)
T2BEC 024:688 JLINK_ReadReg(R12)  returns 0x0000000F (0000ms, 0967ms total)
T2BEC 024:688 JLINK_ReadReg(R13 (SP))  returns 0x200002B0 (0000ms, 0967ms total)
T2BEC 024:688 JLINK_ReadReg(R14)  returns 0x080007D5 (0000ms, 0967ms total)
T2BEC 024:688 JLINK_ReadReg(R15 (PC))  returns 0x080009E4 (0000ms, 0967ms total)
T2BEC 024:688 JLINK_ReadReg(XPSR)  returns 0x61000000 (0000ms, 0967ms total)
T2BEC 024:688 JLINK_ReadReg(MSP)  returns 0x200002B0 (0001ms, 0968ms total)
T2BEC 024:689 JLINK_ReadReg(PSP)  returns 0x20000800 (0000ms, 0968ms total)
T2BEC 024:689 JLINK_ReadReg(CFBP)  returns 0x00000000 (0000ms, 0968ms total)
T3078 024:689 JLINK_ReadMem (0x200002BC, 0x0004 Bytes, ...) -- CPU_ReadMem(64 bytes @ 0x20000280) -- Updating C cache (64 bytes @ 0x20000280) -- Read from C cache (4 bytes @ 0x200002BC) -- Data:  F9 01 00 08  returns 0x00 (0002ms, 0970ms total)
T3078 024:691 JLINK_ReadMem (0x200002B0, 0x0004 Bytes, ...) -- Read from C cache (4 bytes @ 0x200002B0) -- Data:  00 00 00 00  returns 0x00 (0000ms, 0970ms total)
T3078 024:691 JLINK_ReadMem (0x200002B4, 0x0004 Bytes, ...) -- Read from C cache (4 bytes @ 0x200002B4) -- Data:  5C 00 00 20  returns 0x00 (0001ms, 0971ms total)
T3078 024:692 JLINK_ReadMem (0x200002B8, 0x0004 Bytes, ...) -- Read from C cache (4 bytes @ 0x200002B8) -- Data:  00 00 00 00  returns 0x00 (0000ms, 0971ms total)
T3078 024:692 JLINK_ReadMemU32(0xE0001004, 0x0001 Items, ...) -- CPU_ReadMem(4 bytes @ 0xE0001004) -- Data:  60 CC 81 02  returns 0x01 (0001ms, 0972ms total)
T2BEC 025:354 JLINK_ReadMem (0x080009E4, 0x003C Bytes, ...) -- CPU_ReadMem(128 bytes @ 0x080009C0) -- Updating C cache (128 bytes @ 0x080009C0) -- Read from C cache (60 bytes @ 0x080009E4) -- Data:  05 46 3C 21 D0 20 FF F7 9D FF 06 46 46 EA 05 20 ...  returns 0x00 (0004ms, 0976ms total)
T2BEC 025:358 JLINK_Step() -- Read from C cache (2 bytes @ 0x080009E4) -- Simulated  returns 0x00 (0002ms, 0978ms total)
T2BEC 025:360 JLINK_ReadReg(R15 (PC))  returns 0x080009E6 (0001ms, 0979ms total)
T2BEC 025:361 JLINK_ReadReg(XPSR)  returns 0x61000000 (0000ms, 0979ms total)
T2BEC 025:361 JLINK_ReadReg(R0)  returns 0x00000000 (0001ms, 0980ms total)
T2BEC 025:362 JLINK_ReadReg(R1)  returns 0x00000000 (0000ms, 0980ms total)
T2BEC 025:362 JLINK_ReadReg(R2)  returns 0x00000081 (0000ms, 0980ms total)
T2BEC 025:362 JLINK_ReadReg(R3)  returns 0x00000800 (0001ms, 0981ms total)
T2BEC 025:363 JLINK_ReadReg(R4)  returns 0x00000000 (0000ms, 0981ms total)
T2BEC 025:363 JLINK_ReadReg(R5)  returns 0x00000000 (0000ms, 0981ms total)
T2BEC 025:363 JLINK_ReadReg(R6)  returns 0x00000000 (0000ms, 0981ms total)
T2BEC 025:363 JLINK_ReadReg(R7)  returns 0x00000000 (0000ms, 0981ms total)
T2BEC 025:363 JLINK_ReadReg(R8)  returns 0x00000000 (0000ms, 0981ms total)
T2BEC 025:363 JLINK_ReadReg(R9)  returns 0x20000160 (0001ms, 0982ms total)
T2BEC 025:364 JLINK_ReadReg(R10)  returns 0x08002800 (0000ms, 0982ms total)
T2BEC 025:364 JLINK_ReadReg(R11)  returns 0x00000000 (0000ms, 0982ms total)
T2BEC 025:364 JLINK_ReadReg(R12)  returns 0x0000000F (0000ms, 0982ms total)
T2BEC 025:364 JLINK_ReadReg(R13 (SP))  returns 0x200002B0 (0000ms, 0982ms total)
T2BEC 025:365 JLINK_ReadReg(R14)  returns 0x080007D5 (0000ms, 0983ms total)
T2BEC 025:365 JLINK_ReadReg(R15 (PC))  returns 0x080009E6 (0000ms, 0983ms total)
T2BEC 025:365 JLINK_ReadReg(XPSR)  returns 0x61000000 (0000ms, 0983ms total)
T2BEC 025:365 JLINK_ReadReg(MSP)  returns 0x200002B0 (0000ms, 0983ms total)
T2BEC 025:365 JLINK_ReadReg(PSP)  returns 0x20000800 (0000ms, 0983ms total)
T2BEC 025:365 JLINK_ReadReg(CFBP)  returns 0x00000000 (0000ms, 0983ms total)
T3078 025:366 JLINK_ReadMem (0x200002BC, 0x0004 Bytes, ...) -- Read from C cache (4 bytes @ 0x200002BC) -- Data:  F9 01 00 08  returns 0x00 (0000ms, 0983ms total)
T3078 025:366 JLINK_ReadMem (0x200002B0, 0x0004 Bytes, ...) -- Read from C cache (4 bytes @ 0x200002B0) -- Data:  00 00 00 00  returns 0x00 (0000ms, 0983ms total)
T3078 025:366 JLINK_ReadMem (0x200002B4, 0x0004 Bytes, ...) -- Read from C cache (4 bytes @ 0x200002B4) -- Data:  5C 00 00 20  returns 0x00 (0001ms, 0984ms total)
T3078 025:367 JLINK_ReadMem (0x200002B8, 0x0004 Bytes, ...) -- Read from C cache (4 bytes @ 0x200002B8) -- Data:  00 00 00 00  returns 0x00 (0000ms, 0984ms total)
T3078 025:367 JLINK_ReadMemU32(0xE0001004, 0x0001 Items, ...) -- Data:  60 CC 81 02  returns 0x01 (0000ms, 0984ms total)
T3078 025:367 JLINK_ReadMem (0x080009E6, 0x0002 Bytes, ...) -- Read from C cache (2 bytes @ 0x080009E6) -- Data:  3C 21  returns 0x00 (0001ms, 0985ms total)
T3078 025:368 JLINK_ReadMem (0x080009E8, 0x003C Bytes, ...) -- Read from C cache (60 bytes @ 0x080009E8) -- Data:  D0 20 FF F7 9D FF 06 46 46 EA 05 20 04 B2 20 46 ...  returns 0x00 (0000ms, 0985ms total)
T2BEC 034:370 JLINK_Step() -- Read from C cache (2 bytes @ 0x080009E6) -- Simulated  returns 0x00 (0004ms, 0989ms total)
T2BEC 034:374 JLINK_ReadReg(R15 (PC))  returns 0x080009E8 (0000ms, 0989ms total)
T2BEC 034:374 JLINK_ReadReg(XPSR)  returns 0x21000000 (0001ms, 0990ms total)
T2BEC 034:375 JLINK_ReadReg(R0)  returns 0x00000000 (0000ms, 0990ms total)
T2BEC 034:375 JLINK_ReadReg(R1)  returns 0x0000003C (0000ms, 0990ms total)
T2BEC 034:375 JLINK_ReadReg(R2)  returns 0x00000081 (0001ms, 0991ms total)
T2BEC 034:376 JLINK_ReadReg(R3)  returns 0x00000800 (0000ms, 0991ms total)
T2BEC 034:376 JLINK_ReadReg(R4)  returns 0x00000000 (0000ms, 0991ms total)
T2BEC 034:376 JLINK_ReadReg(R5)  returns 0x00000000 (0000ms, 0991ms total)
T2BEC 034:376 JLINK_ReadReg(R6)  returns 0x00000000 (0000ms, 0991ms total)
T2BEC 034:376 JLINK_ReadReg(R7)  returns 0x00000000 (0000ms, 0991ms total)
T2BEC 034:376 JLINK_ReadReg(R8)  returns 0x00000000 (0000ms, 0991ms total)
T2BEC 034:376 JLINK_ReadReg(R9)  returns 0x20000160 (0001ms, 0992ms total)
T2BEC 034:377 JLINK_ReadReg(R10)  returns 0x08002800 (0000ms, 0992ms total)
T2BEC 034:377 JLINK_ReadReg(R11)  returns 0x00000000 (0000ms, 0992ms total)
T2BEC 034:377 JLINK_ReadReg(R12)  returns 0x0000000F (0000ms, 0992ms total)
T2BEC 034:377 JLINK_ReadReg(R13 (SP))  returns 0x200002B0 (0000ms, 0992ms total)
T2BEC 034:377 JLINK_ReadReg(R14)  returns 0x080007D5 (0000ms, 0992ms total)
T2BEC 034:377 JLINK_ReadReg(R15 (PC))  returns 0x080009E8 (0000ms, 0992ms total)
T2BEC 034:377 JLINK_ReadReg(XPSR)  returns 0x21000000 (0000ms, 0992ms total)
T2BEC 034:377 JLINK_ReadReg(MSP)  returns 0x200002B0 (0001ms, 0993ms total)
T2BEC 034:378 JLINK_ReadReg(PSP)  returns 0x20000800 (0000ms, 0993ms total)
T2BEC 034:378 JLINK_ReadReg(CFBP)  returns 0x00000000 (0000ms, 0993ms total)
T3078 034:378 JLINK_ReadMem (0x200002BC, 0x0004 Bytes, ...) -- Read from C cache (4 bytes @ 0x200002BC) -- Data:  F9 01 00 08  returns 0x00 (0000ms, 0993ms total)
T3078 034:378 JLINK_ReadMem (0x200002B0, 0x0004 Bytes, ...) -- Read from C cache (4 bytes @ 0x200002B0) -- Data:  00 00 00 00  returns 0x00 (0001ms, 0994ms total)
T3078 034:379 JLINK_ReadMem (0x200002B4, 0x0004 Bytes, ...) -- Read from C cache (4 bytes @ 0x200002B4) -- Data:  5C 00 00 20  returns 0x00 (0000ms, 0994ms total)
T3078 034:379 JLINK_ReadMem (0x200002B8, 0x0004 Bytes, ...) -- Read from C cache (4 bytes @ 0x200002B8) -- Data:  00 00 00 00  returns 0x00 (0000ms, 0994ms total)
T3078 034:379 JLINK_ReadMemU32(0xE0001004, 0x0001 Items, ...) -- Data:  60 CC 81 02  returns 0x01 (0001ms, 0995ms total)
T2BEC 034:927 JLINK_ReadMem (0x080009E8, 0x003C Bytes, ...) -- Read from C cache (60 bytes @ 0x080009E8) -- Data:  D0 20 FF F7 9D FF 06 46 46 EA 05 20 04 B2 20 46 ...  returns 0x00 (0001ms, 0996ms total)
T2BEC 034:929 JLINK_Step() -- Read from C cache (2 bytes @ 0x080009E8) -- Simulated  returns 0x00 (0001ms, 0998ms total)
T2BEC 034:930 JLINK_ReadReg(R15 (PC))  returns 0x080009EA (0001ms, 0999ms total)
T2BEC 034:931 JLINK_ReadReg(XPSR)  returns 0x21000000 (0000ms, 0999ms total)
T2BEC 034:931 JLINK_ReadReg(R0)  returns 0x000000D0 (0000ms, 0999ms total)
T2BEC 034:931 JLINK_ReadReg(R1)  returns 0x0000003C (0000ms, 0999ms total)
T2BEC 034:931 JLINK_ReadReg(R2)  returns 0x00000081 (0000ms, 0999ms total)
T2BEC 034:932 JLINK_ReadReg(R3)  returns 0x00000800 (0000ms, 0999ms total)
T2BEC 034:932 JLINK_ReadReg(R4)  returns 0x00000000 (0000ms, 0999ms total)
T2BEC 034:932 JLINK_ReadReg(R5)  returns 0x00000000 (0000ms, 0999ms total)
T2BEC 034:932 JLINK_ReadReg(R6)  returns 0x00000000 (0000ms, 0999ms total)
T2BEC 034:932 JLINK_ReadReg(R7)  returns 0x00000000 (0000ms, 0999ms total)
T2BEC 034:932 JLINK_ReadReg(R8)  returns 0x00000000 (0000ms, 0999ms total)
T2BEC 034:932 JLINK_ReadReg(R9)  returns 0x20000160 (0001ms, 1000ms total)
T2BEC 034:933 JLINK_ReadReg(R10)  returns 0x08002800 (0000ms, 1000ms total)
T2BEC 034:933 JLINK_ReadReg(R11)  returns 0x00000000 (0001ms, 1001ms total)
T2BEC 034:934 JLINK_ReadReg(R12)  returns 0x0000000F (0000ms, 1001ms total)
T2BEC 034:934 JLINK_ReadReg(R13 (SP))  returns 0x200002B0 (0000ms, 1001ms total)
T2BEC 034:934 JLINK_ReadReg(R14)  returns 0x080007D5 (0000ms, 1001ms total)
T2BEC 034:934 JLINK_ReadReg(R15 (PC))  returns 0x080009EA (0000ms, 1001ms total)
T2BEC 034:934 JLINK_ReadReg(XPSR)  returns 0x21000000 (0000ms, 1001ms total)
T2BEC 034:935 JLINK_ReadReg(MSP)  returns 0x200002B0 (0000ms, 1002ms total)
T2BEC 034:935 JLINK_ReadReg(PSP)  returns 0x20000800 (0000ms, 1002ms total)
T2BEC 034:935 JLINK_ReadReg(CFBP)  returns 0x00000000 (0000ms, 1002ms total)
T3078 034:936 JLINK_ReadMem (0x200002BC, 0x0004 Bytes, ...) -- Read from C cache (4 bytes @ 0x200002BC) -- Data:  F9 01 00 08  returns 0x00 (0000ms, 1002ms total)
T3078 034:936 JLINK_ReadMem (0x200002B0, 0x0004 Bytes, ...) -- Read from C cache (4 bytes @ 0x200002B0) -- Data:  00 00 00 00  returns 0x00 (0000ms, 1002ms total)
T3078 034:936 JLINK_ReadMem (0x200002B4, 0x0004 Bytes, ...) -- Read from C cache (4 bytes @ 0x200002B4) -- Data:  5C 00 00 20  returns 0x00 (0000ms, 1002ms total)
T3078 034:937 JLINK_ReadMem (0x200002B8, 0x0004 Bytes, ...) -- Read from C cache (4 bytes @ 0x200002B8) -- Data:  00 00 00 00  returns 0x00 (0000ms, 1003ms total)
T3078 034:937 JLINK_ReadMemU32(0xE0001004, 0x0001 Items, ...) -- Data:  60 CC 81 02  returns 0x01 (0000ms, 1003ms total)
T2BEC 035:342 JLINK_ReadMem (0x080009EA, 0x0002 Bytes, ...) -- Read from C cache (2 bytes @ 0x080009EA) -- Data:  FF F7  returns 0x00 (0001ms, 1004ms total)
T2BEC 035:343 JLINK_ReadMem (0x080009EC, 0x003C Bytes, ...) -- Read from C cache (60 bytes @ 0x080009EC) -- Data:  9D FF 06 46 46 EA 05 20 04 B2 20 46 70 BD 70 B5 ...  returns 0x00 (0001ms, 1005ms total)
